T1250 5518:571 SEGGER J-Link V5.10 Log File (0002ms, 1703ms total)
T1250 5518:571 DLL Compiled: Nov 27 2015 17:01:28 (0002ms, 1703ms total)
T1250 5518:571 Logging started @ 2016-04-07 21:21 (0002ms, 1703ms total)
T1250 5519:559 JLINK_ExecCommand("Device = AT91SAM4SD32C", ...)Device "ATSAM4SD32C" selected.  returns 0x00 (0001ms, 1704ms total)
T1250 5519:595 JLINK_ExecCommand("ProjectFile = C:\Users\Guilherme\Documents\GitHub\Entregas\Aula 4\GPIO_REGISTRADORES_LED\jlink.config", ...)  returns 0x00 (0000ms, 1704ms total)
T1250 5520:238 JLINK_ExecCommand("Device = AT91SAM4SD32C", ...)Device "ATSAM4SD32C" selected.  returns 0x00 (0001ms, 1705ms total)
T1250 5520:239 JLINK_TIF_Select(JLINKARM_TIF_JTAG)  returns 0x00 (0004ms, 1709ms total)
T1250 5520:243 JLINK_GetIdData(...) >0x2F8 JTAG>TotalIRLen = 4, IRPrint = 0x01 >0x30 JTAG> >0x210 JTAG> >0x70 JTAG> >0x40 JTAG> >0x40 JTAG> >0x40 JTAG> >0x48 JTAG> >0x78 JTAG> >0x40 JTAG> >0x30 JTAG> >0x40 JTAG> >0x40 JTAG> >0x30 JTAG> >0x40 JTAG> >0x48 JTAG>Found Cortex-M4 r0p1, Little endian. -- CPU_ReadMem(4 bytes @ 0xE000EDF0) -- CPU_ReadMem(4 bytes @ 0xE0002000)FPUnit: 6 code (BP) slots and 2 literal slots -- CPU_ReadMem(4 bytes @ 0xE000EDFC) -- CPU_ReadMem(4 bytes @ 0xE0001000)
 -- CPU_WriteMem(4 bytes @ 0xE0001000) -- CPU_ReadMem(4 bytes @ 0xE000ED88) -- CPU_WriteMem(4 bytes @ 0xE000ED88) -- CPU_ReadMem(4 bytes @ 0xE000ED88) -- CPU_WriteMem(4 bytes @ 0xE000ED88)CoreSight components:ROMTbl 0 @ E00FF000 -- CPU_ReadMem(16 bytes @ 0xE00FF000) -- CPU_ReadMem(16 bytes @ 0xE000EFF0) -- CPU_ReadMem(16 bytes @ 0xE000EFE0)ROMTbl 0 [0]: FFF0F000, CID: B105E00D, PID: 000BB000 SCS -- CPU_ReadMem(16 bytes @ 0xE0001FF0) -- CPU_ReadMem(16 bytes @ 0xE0001FE0)
ROMTbl 0 [1]: FFF02000, CID: B105E00D, PID: 003BB002 DWT -- CPU_ReadMem(16 bytes @ 0xE0002FF0) -- CPU_ReadMem(16 bytes @ 0xE0002FE0)ROMTbl 0 [2]: FFF03000, CID: B105E00D, PID: 002BB003 FPB -- CPU_ReadMem(16 bytes @ 0xE0000FF0) -- CPU_ReadMem(16 bytes @ 0xE0000FE0)ROMTbl 0 [3]: FFF01000, CID: B105E00D, PID: 003BB001 ITM -- CPU_ReadMem(16 bytes @ 0xE00FF010) -- CPU_ReadMem(16 bytes @ 0xE0040FF0) -- CPU_ReadMem(16 bytes @ 0xE0040FE0)ROMTbl 0 [4]: FFF41000, CID: B105900D, PID: 000BB9A1 TPIU ScanLen=4
 NumDevices=1 aId[0]=0x4BA00477 aIrRead[0]=0 aScanLen[0]=0 aScanRead[0]=0 (0048ms, 1757ms total)
T1250 5520:291 JLINK_ConfigJTAG(IRPre = 0, DRPre = 0) (0000ms, 1757ms total)
T1250 5520:291 JLINK_SetSpeed(4000) (0001ms, 1758ms total)
T1250 5520:292 JLINK_ResetPullsRESET(OFF) (0000ms, 1758ms total)
T1250 5520:292 JLINK_Connect() >0x2F8 JTAG>TotalIRLen = 4, IRPrint = 0x01 >0x30 JTAG> >0x210 JTAG> >0x70 JTAG> >0x40 JTAG> >0x40 JTAG> >0x40 JTAG> >0x48 JTAG> >0x78 JTAG> >0x40 JTAG> >0x30 JTAG> >0x40 JTAG> >0x40 JTAG> >0x30 JTAG> >0x40 JTAG> >0x48 JTAG>Found Cortex-M4 r0p1, Little endian. -- CPU_ReadMem(4 bytes @ 0xE000EDF0) -- CPU_ReadMem(4 bytes @ 0xE0002000)FPUnit: 6 code (BP) slots and 2 literal slots -- CPU_ReadMem(4 bytes @ 0xE000EDFC) -- CPU_ReadMem(4 bytes @ 0xE0001000)
 -- CPU_WriteMem(4 bytes @ 0xE0001000) -- CPU_ReadMem(4 bytes @ 0xE000ED88) -- CPU_WriteMem(4 bytes @ 0xE000ED88) -- CPU_ReadMem(4 bytes @ 0xE000ED88) -- CPU_WriteMem(4 bytes @ 0xE000ED88)CoreSight components:ROMTbl 0 @ E00FF000 -- CPU_ReadMem(16 bytes @ 0xE00FF000) -- CPU_ReadMem(16 bytes @ 0xE000EFF0) -- CPU_ReadMem(16 bytes @ 0xE000EFE0)ROMTbl 0 [0]: FFF0F000, CID: B105E00D, PID: 000BB000 SCS -- CPU_ReadMem(16 bytes @ 0xE0001FF0) -- CPU_ReadMem(16 bytes @ 0xE0001FE0)
ROMTbl 0 [1]: FFF02000, CID: B105E00D, PID: 003BB002 DWT -- CPU_ReadMem(16 bytes @ 0xE0002FF0) -- CPU_ReadMem(16 bytes @ 0xE0002FE0)ROMTbl 0 [2]: FFF03000, CID: B105E00D, PID: 002BB003 FPB -- CPU_ReadMem(16 bytes @ 0xE0000FF0) -- CPU_ReadMem(16 bytes @ 0xE0000FE0)ROMTbl 0 [3]: FFF01000, CID: B105E00D, PID: 003BB001 ITM -- CPU_ReadMem(16 bytes @ 0xE00FF010) -- CPU_ReadMem(16 bytes @ 0xE0040FF0) -- CPU_ReadMem(16 bytes @ 0xE0040FE0)ROMTbl 0 [4]: FFF41000, CID: B105900D, PID: 000BB9A1 TPIU  returns 0x00
 (0030ms, 1788ms total)
T1250 5520:322 JLINK_Halt()  returns 0x00 (0004ms, 1792ms total)
T1250 5520:326 JLINK_WriteMem(0x400E0A04, 0x0004 Bytes, ...) - Data: 0B 01 00 5A -- CPU_WriteMem(4 bytes @ 0x400E0A04)  returns 0x04 (0001ms, 1793ms total)
T1250 5520:327 JLINK_ReadMem (0x400E0A08, 0x0004 Bytes, ...) -- CPU_ReadMem(4 bytes @ 0x400E0A08) - Data: 01 00 00 00  returns 0x00 (0001ms, 1794ms total)
T1250 5520:328 JLINK_WriteMem(0x400E0A04, 0x0004 Bytes, ...) - Data: 0C 02 00 5A -- CPU_WriteMem(4 bytes @ 0x400E0A04)  returns 0x04 (0001ms, 1795ms total)
T1250 5520:329 JLINK_ReadMem (0x400E0A08, 0x0004 Bytes, ...) -- CPU_ReadMem(4 bytes @ 0x400E0A08) - Data: 01 00 00 00  returns 0x00 (0001ms, 1796ms total)
T1250 5520:330 JLINK_Reset() -- CPU_ReadMem(16 bytes @ 0x20000000) -- CPU_WriteMem(16 bytes @ 0x20000000) -- CPU_ReadMem(4 bytes @ 0xE000EDFC) -- CPU_WriteMem(4 bytes @ 0xE000EDFC) -- CPU_ReadMem(4 bytes @ 0xE0001000) -- CPU_WriteMem(4 bytes @ 0xE000EDFC) -- CPU_WriteMem(16 bytes @ 0x20000000) -- CPU_WriteMem(4 bytes @ 0xE0002000) -- CPU_ReadMem(4 bytes @ 0xE000EDFC) -- CPU_ReadMem(4 bytes @ 0xE0001000) (0029ms, 1825ms total)
T1250 5520:361 JLINK_JTAG_GetDeviceID(DeviceIndex = 0)  returns 0x4BA00477 (0000ms, 1825ms total)
T1250 5520:361 JLINK_ReadMemU32(0x400E0740, 0x0001 Items, ...) -- CPU_ReadMem(4 bytes @ 0x400E0740) - Data: E0 0E A7 29  returns 0x01 (0001ms, 1826ms total)
T1250 5520:362 JLINK_ReadMemU32(0x400E0744, 0x0001 Items, ...) -- CPU_ReadMem(4 bytes @ 0x400E0744) - Data: 00 00 00 00  returns 0x01 (0000ms, 1826ms total)
T1250 5520:363 JLINK_WriteMem(0x400E0A04, 0x0004 Bytes, ...) - Data: 05 00 00 5A -- CPU_WriteMem(4 bytes @ 0x400E0A04)  returns 0x04 (0000ms, 1826ms total)
T1250 5520:363 JLINK_WriteMem(0x400E0C04, 0x0004 Bytes, ...) - Data: 05 00 00 5A -- CPU_WriteMem(4 bytes @ 0x400E0C04)  returns 0x04 (0001ms, 1827ms total)
T1250 5520:364 JLINK_ReadMem (0x400E0A08, 0x0004 Bytes, ...) -- CPU_ReadMem(4 bytes @ 0x400E0A08) - Data: 00 00 00 00  returns 0x00 (0001ms, 1828ms total)
T1250 5520:366 JLINK_ReadMem (0x400E0A08, 0x0004 Bytes, ...) -- CPU_ReadMem(4 bytes @ 0x400E0A08) - Data: 00 00 00 00  returns 0x00 (0000ms, 1828ms total)
T0D70 5520:370 JLINK_IsHalted()  returns TRUE (0000ms, 1828ms total)
T0D70 5520:370 JLINK_GetMOEs(...) -- CPU_ReadMem(4 bytes @ 0xE000ED30) -- CPU_WriteMem(4 bytes @ 0xE000ED30)  returns 0x01 (0001ms, 1829ms total)
T1250 5520:372 JLINK_ReadMem (0x400E0A08, 0x0004 Bytes, ...) -- CPU_ReadMem(4 bytes @ 0x400E0A08) - Data: 00 00 00 00  returns 0x00 (0000ms, 1829ms total)
T0D70 5520:373 JLINK_ReadReg(R15 (PC))  returns 0x00400328 (0000ms, 1829ms total)
T1250 5520:416 JLINK_ReadMem (0x400E0A08, 0x0004 Bytes, ...) -- CPU_ReadMem(4 bytes @ 0x400E0A08) - Data: 00 00 00 00  returns 0x00 (0001ms, 1830ms total)
T1250 5520:481 JLINK_ReadMem (0x400E0A08, 0x0004 Bytes, ...) -- CPU_ReadMem(4 bytes @ 0x400E0A08) - Data: 00 00 00 00  returns 0x00 (0001ms, 1831ms total)
T0D70 5520:573 JLINK_IsHalted()  returns TRUE (0000ms, 1831ms total)
T1250 5520:766 JLINK_ReadMem (0x400E0A08, 0x0004 Bytes, ...) -- CPU_ReadMem(4 bytes @ 0x400E0A08) - Data: 00 00 00 00  returns 0x00 (0001ms, 1832ms total)
T0D70 5520:773 JLINK_IsHalted()  returns TRUE (0000ms, 1832ms total)
T0D70 5520:973 JLINK_IsHalted()  returns TRUE (0001ms, 1833ms total)
T0D70 5521:174 JLINK_IsHalted()  returns TRUE (0000ms, 1832ms total)
T0D70 5521:374 JLINK_IsHalted()  returns TRUE (0000ms, 1832ms total)
T0D70 5521:574 JLINK_IsHalted()  returns TRUE (0000ms, 1832ms total)
T0D70 5521:774 JLINK_IsHalted()  returns TRUE (0000ms, 1832ms total)
T1250 5521:815 JLINK_ReadMem (0x400E0A08, 0x0004 Bytes, ...) -- CPU_ReadMem(4 bytes @ 0x400E0A08) - Data: 00 00 00 00  returns 0x00 (0001ms, 1833ms total)
T1250 5521:816 JLINK_ReadMem (0x400E0C08, 0x0004 Bytes, ...) -- CPU_ReadMem(4 bytes @ 0x400E0C08) - Data: 00 00 00 00  returns 0x00 (0001ms, 1834ms total)
T1250 5521:818 JLINK_ReadMem (0x400E0C08, 0x0004 Bytes, ...) -- CPU_ReadMem(4 bytes @ 0x400E0C08) - Data: 00 00 00 00  returns 0x00 (0001ms, 1835ms total)
T1250 5521:823 JLINK_ReadMem (0x400E0C08, 0x0004 Bytes, ...) -- CPU_ReadMem(4 bytes @ 0x400E0C08) - Data: 00 00 00 00  returns 0x00 (0001ms, 1836ms total)
T1250 5521:865 JLINK_ReadMem (0x400E0C08, 0x0004 Bytes, ...) -- CPU_ReadMem(4 bytes @ 0x400E0C08) - Data: 00 00 00 00  returns 0x00 (0001ms, 1837ms total)
T1250 5521:930 JLINK_ReadMem (0x400E0C08, 0x0004 Bytes, ...) -- CPU_ReadMem(4 bytes @ 0x400E0C08) - Data: 00 00 00 00  returns 0x00 (0001ms, 1838ms total)
T0D70 5521:974 JLINK_IsHalted()  returns TRUE (0000ms, 1838ms total)
T0D70 5522:174 JLINK_IsHalted()  returns TRUE (0000ms, 1838ms total)
T1250 5522:215 JLINK_ReadMem (0x400E0C08, 0x0004 Bytes, ...) -- CPU_ReadMem(4 bytes @ 0x400E0C08) - Data: 00 00 00 00  returns 0x00 (0001ms, 1839ms total)
T0D70 5522:374 JLINK_IsHalted()  returns TRUE (0000ms, 1839ms total)
T0D70 5522:574 JLINK_IsHalted()  returns TRUE (0000ms, 1839ms total)
T0D70 5522:774 JLINK_IsHalted()  returns TRUE (0001ms, 1840ms total)
T0D70 5522:975 JLINK_IsHalted()  returns TRUE (0000ms, 1839ms total)
T0D70 5523:175 JLINK_IsHalted()  returns TRUE (0000ms, 1839ms total)
T1250 5523:265 JLINK_ReadMem (0x400E0C08, 0x0004 Bytes, ...) -- CPU_ReadMem(4 bytes @ 0x400E0C08) - Data: 00 00 00 00  returns 0x00 (0001ms, 1840ms total)
T1250 5523:266 JLINK_ReadMem (0x400E0A08, 0x0004 Bytes, ...) -- CPU_ReadMem(4 bytes @ 0x400E0A08) - Data: 00 00 00 00  returns 0x00 (0001ms, 1841ms total)
T1250 5523:268 JLINK_ReadMem (0x400E0A08, 0x0004 Bytes, ...) -- CPU_ReadMem(4 bytes @ 0x400E0A08) - Data: 00 00 00 00  returns 0x00 (0001ms, 1842ms total)
T1250 5523:273 JLINK_ReadMem (0x400E0A08, 0x0004 Bytes, ...) -- CPU_ReadMem(4 bytes @ 0x400E0A08) - Data: 00 00 00 00  returns 0x00 (0001ms, 1843ms total)
T1250 5523:315 JLINK_ReadMem (0x400E0A08, 0x0004 Bytes, ...) -- CPU_ReadMem(4 bytes @ 0x400E0A08) - Data: 00 00 00 00  returns 0x00 (0001ms, 1844ms total)
T0D70 5523:375 JLINK_IsHalted()  returns TRUE (0001ms, 1845ms total)
T1250 5523:380 JLINK_ReadMem (0x400E0A08, 0x0004 Bytes, ...) -- CPU_ReadMem(4 bytes @ 0x400E0A08) - Data: 00 00 00 00  returns 0x00 (0001ms, 1845ms total)
T0D70 5523:576 JLINK_IsHalted()  returns TRUE (0000ms, 1845ms total)
T1250 5523:665 JLINK_ReadMem (0x400E0A08, 0x0004 Bytes, ...) -- CPU_ReadMem(4 bytes @ 0x400E0A08) - Data: 00 00 00 00  returns 0x00 (0001ms, 1846ms total)
T0D70 5523:776 JLINK_IsHalted()  returns TRUE (0000ms, 1846ms total)
T0D70 5523:976 JLINK_IsHalted()  returns TRUE (0001ms, 1847ms total)
T0D70 5524:177 JLINK_IsHalted()  returns TRUE (0000ms, 1846ms total)
T0D70 5524:377 JLINK_IsHalted()  returns TRUE (0000ms, 1846ms total)
T0D70 5524:577 JLINK_IsHalted()  returns TRUE (0001ms, 1847ms total)
T1250 5524:715 JLINK_ReadMem (0x400E0A08, 0x0004 Bytes, ...) -- CPU_ReadMem(4 bytes @ 0x400E0A08) - Data: 00 00 00 00  returns 0x00 (0001ms, 1847ms total)
T1250 5524:716 JLINK_ReadMem (0x400E0C08, 0x0004 Bytes, ...) -- CPU_ReadMem(4 bytes @ 0x400E0C08) - Data: 00 00 00 00  returns 0x00 (0001ms, 1848ms total)
T1250 5524:718 JLINK_ReadMem (0x400E0C08, 0x0004 Bytes, ...) -- CPU_ReadMem(4 bytes @ 0x400E0C08) - Data: 00 00 00 00  returns 0x00 (0001ms, 1849ms total)
T1250 5524:723 JLINK_ReadMem (0x400E0C08, 0x0004 Bytes, ...) -- CPU_ReadMem(4 bytes @ 0x400E0C08) - Data: 00 00 00 00  returns 0x00 (0001ms, 1850ms total)
T1250 5524:765 JLINK_ReadMem (0x400E0C08, 0x0004 Bytes, ...) -- CPU_ReadMem(4 bytes @ 0x400E0C08) - Data: 00 00 00 00  returns 0x00 (0001ms, 1851ms total)
T0D70 5524:778 JLINK_IsHalted()  returns TRUE (0000ms, 1851ms total)
T1250 5524:830 JLINK_ReadMem (0x400E0C08, 0x0004 Bytes, ...) -- CPU_ReadMem(4 bytes @ 0x400E0C08) - Data: 00 00 00 00  returns 0x00 (0001ms, 1852ms total)
T0D70 5524:978 JLINK_IsHalted()  returns TRUE (0000ms, 1852ms total)
T1250 5525:115 JLINK_ReadMem (0x400E0C08, 0x0004 Bytes, ...) -- CPU_ReadMem(4 bytes @ 0x400E0C08) - Data: 01 00 00 00  returns 0x00 (0001ms, 1853ms total)
T1250 5525:116 JLINK_ReadMem (0x400E0A08, 0x0004 Bytes, ...) -- CPU_ReadMem(4 bytes @ 0x400E0A08) - Data: 01 00 00 00  returns 0x00 (0001ms, 1854ms total)
T0D70 5525:178 JLINK_IsHalted()  returns TRUE (0000ms, 1854ms total)
T1250 5525:179 JLINK_ResetPullsRESET(ON) (0001ms, 1855ms total)
T1250 5525:180 JLINK_ResetNoHalt() >0x2F8 JTAG>TotalIRLen = 4, IRPrint = 0x01 >0x30 JTAG> >0x210 JTAG> >0x70 JTAG> >0x40 JTAG> >0x40 JTAG> >0x40 JTAG> >0x48 JTAG> >0x78 JTAG> >0x40 JTAG> >0x30 JTAG> >0x40 JTAG> >0x40 JTAG> >0x30 JTAG> >0x40 JTAG> >0x48 JTAG>Found Cortex-M4 r0p1, Little endian. -- CPU_ReadMem(4 bytes @ 0xE000EDF0) -- CPU_ReadMem(4 bytes @ 0xE0002000)FPUnit: 6 code (BP) slots and 2 literal slots -- CPU_ReadMem(4 bytes @ 0xE000EDFC) -- CPU_ReadMem(4 bytes @ 0xE0001000)
 -- CPU_ReadMem(4 bytes @ 0xE000ED88) -- CPU_WriteMem(4 bytes @ 0xE000ED88) -- CPU_ReadMem(4 bytes @ 0xE000ED88) -- CPU_WriteMem(4 bytes @ 0xE000ED88)CoreSight components:ROMTbl 0 @ E00FF000 -- CPU_ReadMem(16 bytes @ 0xE00FF000) -- CPU_ReadMem(16 bytes @ 0xE000EFF0) -- CPU_ReadMem(16 bytes @ 0xE000EFE0)ROMTbl 0 [0]: FFF0F000, CID: B105E00D, PID: 000BB000 SCS -- CPU_WriteMem(4 bytes @ 0xE0001000) -- CPU_ReadMem(16 bytes @ 0xE0001FF0) -- CPU_ReadMem(16 bytes @ 0xE0001FE0)
ROMTbl 0 [1]: FFF02000, CID: B105E00D, PID: 003BB002 DWT -- CPU_ReadMem(16 bytes @ 0xE0002FF0) -- CPU_ReadMem(16 bytes @ 0xE0002FE0)ROMTbl 0 [2]: FFF03000, CID: B105E00D, PID: 002BB003 FPB -- CPU_ReadMem(16 bytes @ 0xE0000FF0) -- CPU_ReadMem(16 bytes @ 0xE0000FE0)ROMTbl 0 [3]: FFF01000, CID: B105E00D, PID: 003BB001 ITM -- CPU_ReadMem(16 bytes @ 0xE00FF010) -- CPU_ReadMem(16 bytes @ 0xE0040FF0) -- CPU_ReadMem(16 bytes @ 0xE0040FE0)ROMTbl 0 [4]: FFF41000, CID: B105900D, PID: 000BB9A1 TPIU
                JLINK_Reset() -- CPU_ReadMem(16 bytes @ 0x20000000) -- CPU_WriteMem(16 bytes @ 0x20000000) -- CPU_ReadMem(4 bytes @ 0xE000EDFC) -- CPU_WriteMem(4 bytes @ 0xE000EDFC) -- CPU_ReadMem(4 bytes @ 0xE0001000) -- CPU_WriteMem(4 bytes @ 0xE0001004) -- CPU_WriteMem(4 bytes @ 0xE000EDFC) -- CPU_WriteMem(16 bytes @ 0x20000000) -- CPU_WriteMem(4 bytes @ 0xE0002000) -- CPU_ReadMem(4 bytes @ 0xE000EDFC) -- CPU_ReadMem(4 bytes @ 0xE0001000) (0031ms, 0031ms total)
                JLINK_Go() -- CPU_ReadMem(4 bytes @ 0xE0001000) -- CPU_WriteMem(4 bytes @ 0xE0001004) (0003ms, 0034ms total)
               (0065ms, 1920ms total)
T1250 5525:245 JLINK_ExecCommand("ProjectFile = C:\Users\Guilherme\Documents\GitHub\Entregas\Aula 4\GPIO_REGISTRADORES_LED\jlink.config", ...)  returns 0x00 (0001ms, 1921ms total)
T1250 5525:820 JLINK_ExecCommand("Device = AT91SAM4SD32C", ...)Device "ATSAM4SD32C" selected.  returns 0x00 (0001ms, 1922ms total)
T1250 5525:821 JLINK_TIF_Select(JLINKARM_TIF_JTAG)  returns 0x00 (0001ms, 1923ms total)
T1250 5525:822 JLINK_GetIdData(...) ScanLen=4 NumDevices=1 aId[0]=0x4BA00477 aIrRead[0]=0 aScanLen[0]=0 aScanRead[0]=0 (0000ms, 1923ms total)
T1250 5525:822 JLINK_ConfigJTAG(IRPre = 0, DRPre = 0) (0000ms, 1923ms total)
T1250 5525:822 JLINK_SetSpeed(4000) (0000ms, 1923ms total)
T1250 5525:822 JLINK_ResetPullsRESET(OFF) (0000ms, 1923ms total)
T1250 5525:823 JLINK_Connect() >0x2F8 JTAG>TotalIRLen = 4, IRPrint = 0x01 >0x30 JTAG> >0x210 JTAG> >0x70 JTAG> >0x40 JTAG> >0x40 JTAG> >0x40 JTAG> >0x48 JTAG> >0x78 JTAG> >0x40 JTAG> >0x30 JTAG> >0x40 JTAG> >0x40 JTAG> >0x30 JTAG> >0x40 JTAG> >0x48 JTAG>Found Cortex-M4 r0p1, Little endian. -- CPU_ReadMem(4 bytes @ 0xE000EDF0) -- CPU_ReadMem(4 bytes @ 0xE0002000)FPUnit: 6 code (BP) slots and 2 literal slots -- CPU_ReadMem(4 bytes @ 0xE000EDFC) -- CPU_ReadMem(4 bytes @ 0xE0001000)
 -- CPU_WriteMem(4 bytes @ 0xE0001000) -- CPU_ReadMem(4 bytes @ 0xE000ED88) -- CPU_WriteMem(4 bytes @ 0xE000ED88) -- CPU_ReadMem(4 bytes @ 0xE000ED88) -- CPU_WriteMem(4 bytes @ 0xE000ED88)CoreSight components:ROMTbl 0 @ E00FF000 -- CPU_ReadMem(16 bytes @ 0xE00FF000) -- CPU_ReadMem(16 bytes @ 0xE000EFF0) -- CPU_ReadMem(16 bytes @ 0xE000EFE0)ROMTbl 0 [0]: FFF0F000, CID: B105E00D, PID: 000BB000 SCS -- CPU_ReadMem(16 bytes @ 0xE0001FF0) -- CPU_ReadMem(16 bytes @ 0xE0001FE0)
ROMTbl 0 [1]: FFF02000, CID: B105E00D, PID: 003BB002 DWT -- CPU_ReadMem(16 bytes @ 0xE0002FF0) -- CPU_ReadMem(16 bytes @ 0xE0002FE0)ROMTbl 0 [2]: FFF03000, CID: B105E00D, PID: 002BB003 FPB -- CPU_ReadMem(16 bytes @ 0xE0000FF0) -- CPU_ReadMem(16 bytes @ 0xE0000FE0)ROMTbl 0 [3]: FFF01000, CID: B105E00D, PID: 003BB001 ITM -- CPU_ReadMem(16 bytes @ 0xE00FF010) -- CPU_ReadMem(16 bytes @ 0xE0040FF0) -- CPU_ReadMem(16 bytes @ 0xE0040FE0)ROMTbl 0 [4]: FFF41000, CID: B105900D, PID: 000BB9A1 TPIU  returns 0x00
 (0033ms, 1956ms total)
T1250 5525:856 JLINK_Halt()  returns 0x00 (0004ms, 1960ms total)
T1250 5525:860 JLINK_WriteMem(0x400E0A04, 0x0004 Bytes, ...) - Data: 0B 01 00 5A -- CPU_WriteMem(4 bytes @ 0x400E0A04)  returns 0x04 (0002ms, 1962ms total)
T1250 5525:862 JLINK_ReadMem (0x400E0A08, 0x0004 Bytes, ...) -- CPU_ReadMem(4 bytes @ 0x400E0A08) - Data: 01 00 00 00  returns 0x00 (0001ms, 1963ms total)
T1250 5525:863 JLINK_WriteMem(0x400E0A04, 0x0004 Bytes, ...) - Data: 0C 02 00 5A -- CPU_WriteMem(4 bytes @ 0x400E0A04)  returns 0x04 (0001ms, 1964ms total)
T1250 5525:864 JLINK_ReadMem (0x400E0A08, 0x0004 Bytes, ...) -- CPU_ReadMem(4 bytes @ 0x400E0A08) - Data: 01 00 00 00  returns 0x00 (0001ms, 1965ms total)
T1250 5525:865 JLINK_Reset() -- CPU_ReadMem(16 bytes @ 0x20000000) -- CPU_WriteMem(16 bytes @ 0x20000000) -- CPU_ReadMem(4 bytes @ 0xE000EDFC) -- CPU_WriteMem(4 bytes @ 0xE000EDFC) -- CPU_ReadMem(4 bytes @ 0xE0001000) -- CPU_WriteMem(4 bytes @ 0xE000EDFC) -- CPU_WriteMem(16 bytes @ 0x20000000) -- CPU_WriteMem(4 bytes @ 0xE0002000) -- CPU_ReadMem(4 bytes @ 0xE000EDFC) -- CPU_ReadMem(4 bytes @ 0xE0001000) (0028ms, 1993ms total)
T1250 5525:896 JLINK_JTAG_GetDeviceID(DeviceIndex = 0)  returns 0x4BA00477 (0000ms, 1993ms total)
T1250 5525:896 JLINK_ReadMemU32(0x400E0740, 0x0001 Items, ...) -- CPU_ReadMem(4 bytes @ 0x400E0740) - Data: E0 0E A7 29  returns 0x01 (0001ms, 1994ms total)
T1250 5525:897 JLINK_ReadMemU32(0x400E0744, 0x0001 Items, ...) -- CPU_ReadMem(4 bytes @ 0x400E0744) - Data: 00 00 00 00  returns 0x01 (0001ms, 1995ms total)
T1250 5525:901 JLINK_BeginDownload(Flags = 0x00) (0000ms, 1995ms total)
T1250 5525:901 JLINK_WriteMem(0x00400000, 0x16B4 Bytes, ...) - Data: E0 34 00 20 15 08 40 00 DD 08 40 00 DD 08 40 00 ...  returns 0x16B4 (0000ms, 1995ms total)
T1250 5525:902 JLINK_WriteMem(0x004016B4, 0x0008 Bytes, ...) - Data: 8C F9 FF 7F 01 00 00 00  returns 0x08 (0000ms, 1995ms total)
T1250 5525:902 JLINK_WriteMem(0x004016BC, 0x0448 Bytes, ...) - Data: 80 B4 83 B0 00 AF 78 60 BF F3 5F 8F 01 38 FB D1 ...  returns 0x448 (0000ms, 1995ms total)
T15F4 5525:921 JLINK_IsHalted()  returns TRUE (0000ms, 1995ms total)
T15F4 5525:921 JLINK_GetMOEs(...) -- CPU_ReadMem(4 bytes @ 0xE000ED30) -- CPU_WriteMem(4 bytes @ 0xE000ED30)  returns 0x01 (0003ms, 1998ms total)
T15F4 5525:924 JLINK_ReadReg(R15 (PC)) -- -------------------------------------- -- Start of determining dirty areas in flash cache -- End of determining dirty areas -- Start of preparing flash programming -- Calculating RAM usage -- RAM usage = 2932 Bytes -- Preserving CPU registers -- Preparing memory -- Determining CPU clock frequency -- CPU clock frequency: 4203 kHz -- CPU frequency = 4203 kHz -- Preparing target -- Downloading RAMCode -- Checking target RAM -- Preparing RAMCode
 -- End of preparing flash programming -- CPU is running at 90000 kHz. -- Start of comparing flash -- CRC check was estimated as fastest method -- Comparing range 0x400000 - 0x401BFF (14 Sectors, 7 KB), using multi-block CRC calculation -- CRC does not match for sectors 0-13 -- End of comparing flash -- Start of erasing sectors -- End of erasing sectors -- Start of flash programming -- Programming range 0x00400000 - 0x00401BFF (014 Sectors, 7 KB) -- End of flash programming
 -- 0x400000 - 0x401BFF (014 Sectors, 7 KB) -- Start of verifying flash -- Checksum calculation was estimated as fastest method -- End of verifying flash -- Start of restoring -- Restore RAMCode -- Restore content of target memory -- Restore target -- Restore memory -- Restoring CPU registers -- End of restoring -- Flash programming performed for 1 range (7168 bytes) -- Total time needed: 0.360s (Prepare: 0.231s, Compare: 0.005s, Erase: 0.000s, Program: 0.065s, Verify: 0.000s, Restore: 0.057s)
  returns 0xFFFFFFFE (0362ms, 2360ms total)
T11B0 5526:416 JLINK_Halt()  returns 0x00 (0001ms, 2361ms total)
T11B0 5526:417 JLINK_ReadReg(R15 (PC))  returns 0xFFFFFFFE (0000ms, 2361ms total)
T11B0 5526:417 JLINK_ReadReg(R13 (SP))  returns 0xFFFFFFFC (0000ms, 2361ms total)
T15F4 5526:515 JLINK_IsHalted()  returns TRUE (0000ms, 2361ms total)
T11B0 5526:529 JLINK_ReadReg(R0)  returns 0x400E1400 (0000ms, 2361ms total)
T11B0 5526:529 JLINK_ReadReg(R1)  returns 0x40C00000 (0000ms, 2361ms total)
T11B0 5526:529 JLINK_ReadReg(R2)  returns 0xA5000005 (0000ms, 2361ms total)
T11B0 5526:529 JLINK_ReadReg(R3)  returns 0x0000608D (0000ms, 2361ms total)
T11B0 5526:529 JLINK_ReadReg(R4)  returns 0x400E1000 (0000ms, 2361ms total)
T11B0 5526:529 JLINK_ReadReg(R5)  returns 0x400E0E00 (0000ms, 2361ms total)
T11B0 5526:529 JLINK_ReadReg(R6)  returns 0x0040058D (0000ms, 2361ms total)
T11B0 5526:529 JLINK_ReadReg(R7)  returns 0x00400591 (0000ms, 2361ms total)
T11B0 5526:529 JLINK_ReadReg(R8)  returns 0x20000001 (0000ms, 2361ms total)
T11B0 5526:529 JLINK_ReadReg(R9)  returns 0x00068A1C (0000ms, 2361ms total)
T11B0 5526:529 JLINK_ReadReg(R10)  returns 0x400E1200 (0000ms, 2361ms total)
T11B0 5526:529 JLINK_ReadReg(R11)  returns 0x3EC2DEFD (0000ms, 2361ms total)
T11B0 5526:529 JLINK_ReadReg(R12)  returns 0x9E040460 (0000ms, 2361ms total)
T11B0 5526:529 JLINK_ReadReg(R13 (SP))  returns 0xFFFFFFFC (0000ms, 2361ms total)
T11B0 5526:529 JLINK_ReadReg(R14)  returns 0xFFFFFFFF (0000ms, 2361ms total)
T11B0 5526:529 JLINK_ReadReg(R15 (PC))  returns 0xFFFFFFFE (0000ms, 2361ms total)
T11B0 5526:529 JLINK_ReadReg(XPSR)  returns 0x01000000 (0000ms, 2361ms total)
T11B0 5526:529 JLINK_ReadReg(MSP)  returns 0xFFFFFFFC (0000ms, 2361ms total)
T11B0 5526:529 JLINK_ReadReg(PSP)  returns 0x4D967C34 (0000ms, 2361ms total)
T11B0 5526:529 JLINK_ReadReg(PRIMASK)  returns 0x00000000 (0000ms, 2361ms total)
T11B0 5526:529 JLINK_ReadReg(BASEPRI)  returns 0x00000000 (0001ms, 2362ms total)
T11B0 5526:530 JLINK_ReadReg(FAULTMASK)  returns 0x00000000 (0000ms, 2362ms total)
T11B0 5526:530 JLINK_ReadReg(CONTROL)  returns 0x00000000 (0000ms, 2362ms total)
T11B0 5526:540 JLINK_EndDownload()  returns 0x00 (0001ms, 2363ms total)
T11B0 5526:541 JLINK_Reset() -- CPU_ReadMem(16 bytes @ 0x20000000) -- CPU_WriteMem(16 bytes @ 0x20000000) -- CPU_ReadMem(4 bytes @ 0xE000EDFC) -- CPU_WriteMem(4 bytes @ 0xE000EDFC) -- CPU_ReadMem(4 bytes @ 0xE0001000) -- CPU_WriteMem(4 bytes @ 0xE000EDFC) -- CPU_WriteMem(16 bytes @ 0x20000000) -- CPU_WriteMem(4 bytes @ 0xE0002000) -- CPU_ReadMem(4 bytes @ 0xE000EDFC) -- CPU_ReadMem(4 bytes @ 0xE0001000) (0026ms, 2389ms total)
T15F4 5526:567 JLINK_IsHalted()  returns TRUE (0000ms, 2389ms total)
T15F4 5526:567 JLINK_GetMOEs(...) -- CPU_ReadMem(4 bytes @ 0xE000ED30) -- CPU_WriteMem(4 bytes @ 0xE000ED30)  returns 0x01 (0001ms, 2390ms total)
T15F4 5526:568 JLINK_ReadReg(R15 (PC))  returns 0x00400814 (0000ms, 2390ms total)
T11B0 5526:577 JLINK_ReadReg(R15 (PC))  returns 0x00400814 (0000ms, 2390ms total)
T11B0 5526:577 JLINK_ReadReg(R13 (SP))  returns 0x200034E0 (0000ms, 2390ms total)
T11B0 5526:586 JLINK_ReadMemHW(0x00400814, 0x0004 Bytes, ...) -- CPU_ReadMem(4 bytes @ 0x00400814) - Data: 80 B5 84 B0  returns 0x00 (0001ms, 2391ms total)
T11B0 5526:628 JLINK_ReadMemHW(0x00400B4C, 0x0002 Bytes, ...) -- CPU_ReadMem(2 bytes @ 0x00400B4C) - Data: 7B 68  returns 0x00 (0001ms, 2392ms total)
T11B0 5526:629 JLINK_ReadMemHW(0x00400B4C, 0x0002 Bytes, ...) -- CPU_ReadMem(2 bytes @ 0x00400B4C) - Data: 7B 68  returns 0x00 (0001ms, 2393ms total)
T1250 5526:631 JLINK_GetNumBPUnits(Type = 0xFFFFFF02)  returns 0x06 (0000ms, 2393ms total)
T1250 5526:631 JLINK_SetBPEx(Addr = 0x00400B4C, Type = 0xFFFFFFF2)  returns 0x00000001 (0000ms, 2393ms total)
T1250 5526:631 JLINK_GetBPInfo(BPHandle = 1)  returns 0x00 (0000ms, 2393ms total)
T15F4 5526:769 JLINK_IsHalted()  returns TRUE (0000ms, 2393ms total)
T15F4 5526:969 JLINK_IsHalted()  returns TRUE (0000ms, 2393ms total)
T11B0 5527:121 JLINK_ReadMemHW(0x00400CE8, 0x0001 Bytes, ...) -- CPU_ReadMem(1 bytes @ 0x00400CE8) - Data: 2D  returns 0x00 (0001ms, 2394ms total)
T15F4 5527:169 JLINK_IsHalted()  returns TRUE (0001ms, 2395ms total)
T15F4 5527:370 JLINK_IsHalted()  returns TRUE (0000ms, 2394ms total)
T15F4 5527:570 JLINK_IsHalted()  returns TRUE (0000ms, 2394ms total)
T15F4 5527:770 JLINK_IsHalted()  returns TRUE (0001ms, 2395ms total)
T15F4 5527:971 JLINK_IsHalted()  returns TRUE (0000ms, 2394ms total)
T15F4 5528:171 JLINK_IsHalted()  returns TRUE (0000ms, 2394ms total)
T11B0 5528:250 JLINK_ReadReg(R15 (PC))  returns 0x00400814 (0000ms, 2394ms total)
T11B0 5528:250 JLINK_SetBPEx(Addr = 0x00400CE8, Type = 0xFFFFFF02)  returns 0x00000002 (0000ms, 2394ms total)
T11B0 5528:250 JLINK_GetBPInfo(BPHandle = 2)  returns 0x00 (0000ms, 2394ms total)
T11B0 5528:250 JLINK_Go() -- CPU_ReadMem(4 bytes @ 0xE0001000) -- CPU_WriteMem(4 bytes @ 0xE0002008) -- CPU_WriteMem(4 bytes @ 0xE000200C) -- CPU_WriteMem(4 bytes @ 0xE0002010) -- CPU_WriteMem(4 bytes @ 0xE0002014) -- CPU_WriteMem(4 bytes @ 0xE0002018) -- CPU_WriteMem(4 bytes @ 0xE000201C) -- CPU_WriteMem(4 bytes @ 0xE0001004) (0007ms, 2401ms total)
T15F4 5528:257 JLINK_IsHalted()  returns FALSE (0001ms, 2402ms total)
T15F4 5528:278 JLINK_IsHalted()  returns TRUE (0004ms, 2405ms total)
T15F4 5528:282 JLINK_GetMOEs(...) -- CPU_ReadMem(4 bytes @ 0xE000ED30) -- CPU_WriteMem(4 bytes @ 0xE000ED30)  returns 0x01 (0002ms, 2403ms total)
T15F4 5528:284 JLINK_ReadReg(R15 (PC))  returns 0x00400CE8 (0000ms, 2403ms total)
T15F4 5528:284 JLINK_WriteMem(0xE000EDFC, 0x0004 Bytes, ...) - Data: 00 00 00 01 -- CPU_WriteMem(4 bytes @ 0xE000EDFC)  returns 0x04 (0001ms, 2404ms total)
T15F4 5528:285 JLINK_ReadMem (0xE0001000, 0x0004 Bytes, ...) -- CPU_ReadMem(4 bytes @ 0xE0001000) - Data: 01 00 00 40  returns 0x00 (0001ms, 2405ms total)
T15F4 5528:286 JLINK_WriteMem(0xE0001000, 0x0004 Bytes, ...) - Data: 01 00 00 40  returns 0x04 (0000ms, 2405ms total)
T15F4 5528:286 JLINK_WriteMem(0xE0001028, 0x0004 Bytes, ...) - Data: 00 01 00 00  returns 0x04 (0000ms, 2405ms total)
T15F4 5528:286 JLINK_ReadMem (0xE0001028, 0x0004 Bytes, ...) -- CPU_WriteMem(4 bytes @ 0xE0001028) -- CPU_ReadMem(4 bytes @ 0xE0001028) - Data: 00 00 00 00  returns 0x00 (0002ms, 2407ms total)
T15F4 5528:288 JLINK_WriteMem(0xE0001024, 0x0004 Bytes, ...) - Data: 1F 00 00 00  returns 0x04 (0000ms, 2407ms total)
T15F4 5528:288 JLINK_ReadMem (0xE0001024, 0x0004 Bytes, ...) -- CPU_WriteMem(4 bytes @ 0xE0001024) -- CPU_ReadMem(4 bytes @ 0xE0001024) - Data: 0F 00 00 00  returns 0x00 (0002ms, 2409ms total)
T15F4 5528:290 JLINK_WriteMem(0xE0001038, 0x0004 Bytes, ...) - Data: 00 01 00 00  returns 0x04 (0000ms, 2409ms total)
T15F4 5528:290 JLINK_ReadMem (0xE0001038, 0x0004 Bytes, ...) -- CPU_WriteMem(4 bytes @ 0xE0001038) -- CPU_ReadMem(4 bytes @ 0xE0001038) - Data: 00 03 00 00  returns 0x00 (0001ms, 2410ms total)
T15F4 5528:291 JLINK_WriteMem(0xE0001034, 0x0004 Bytes, ...) - Data: 1F 00 00 00  returns 0x04 (0001ms, 2411ms total)
T15F4 5528:292 JLINK_ReadMem (0xE0001034, 0x0004 Bytes, ...) -- CPU_WriteMem(4 bytes @ 0xE0001034) -- CPU_ReadMem(4 bytes @ 0xE0001034) - Data: 0F 00 00 00  returns 0x00 (0002ms, 2413ms total)
T15F4 5528:294 JLINK_WriteMem(0xE0001048, 0x0004 Bytes, ...) - Data: 00 01 00 00  returns 0x04 (0000ms, 2413ms total)
T15F4 5528:294 JLINK_ReadMem (0xE0001048, 0x0004 Bytes, ...) -- CPU_WriteMem(4 bytes @ 0xE0001048) -- CPU_ReadMem(4 bytes @ 0xE0001048) - Data: 00 00 00 00  returns 0x00 (0002ms, 2415ms total)
T15F4 5528:296 JLINK_WriteMem(0xE0001044, 0x0004 Bytes, ...) - Data: 1F 00 00 00  returns 0x04 (0000ms, 2415ms total)
T15F4 5528:296 JLINK_ReadMem (0xE0001044, 0x0004 Bytes, ...) -- CPU_WriteMem(4 bytes @ 0xE0001044) -- CPU_ReadMem(4 bytes @ 0xE0001044) - Data: 0F 00 00 00  returns 0x00 (0002ms, 2417ms total)
T15F4 5528:298 JLINK_WriteMem(0xE0001058, 0x0004 Bytes, ...) - Data: 00 01 00 00  returns 0x04 (0000ms, 2417ms total)
T15F4 5528:298 JLINK_ReadMem (0xE0001058, 0x0004 Bytes, ...) -- CPU_WriteMem(4 bytes @ 0xE0001058) -- CPU_ReadMem(4 bytes @ 0xE0001058) - Data: 00 00 00 00  returns 0x00 (0002ms, 2419ms total)
T15F4 5528:300 JLINK_WriteMem(0xE0001054, 0x0004 Bytes, ...) - Data: 1F 00 00 00  returns 0x04 (0000ms, 2419ms total)
T15F4 5528:300 JLINK_ReadMem (0xE0001054, 0x0004 Bytes, ...) -- CPU_WriteMem(4 bytes @ 0xE0001054) -- CPU_ReadMem(4 bytes @ 0xE0001054) - Data: 0F 00 00 00  returns 0x00 (0002ms, 2421ms total)
T15F4 5528:302 JLINK_WriteMem(0xE0001020, 0x0004 Bytes, ...) - Data: 00 00 00 00  returns 0x04 (0000ms, 2421ms total)
T15F4 5528:302 JLINK_WriteMem(0xE0001024, 0x0004 Bytes, ...) - Data: 00 00 00 00  returns 0x04 (0000ms, 2421ms total)
T15F4 5528:302 JLINK_WriteMem(0xE0001028, 0x0004 Bytes, ...) - Data: 00 00 00 00  returns 0x04 (0000ms, 2421ms total)
T15F4 5528:302 JLINK_WriteMem(0xE0001030, 0x0004 Bytes, ...) - Data: 00 00 00 00  returns 0x04 (0000ms, 2421ms total)
T15F4 5528:302 JLINK_WriteMem(0xE0001034, 0x0004 Bytes, ...) - Data: 00 00 00 00  returns 0x04 (0000ms, 2421ms total)
T15F4 5528:302 JLINK_WriteMem(0xE0001038, 0x0004 Bytes, ...) - Data: 00 00 00 00  returns 0x04 (0000ms, 2421ms total)
T15F4 5528:302 JLINK_WriteMem(0xE0001040, 0x0004 Bytes, ...) - Data: 00 00 00 00  returns 0x04 (0000ms, 2421ms total)
T15F4 5528:302 JLINK_WriteMem(0xE0001044, 0x0004 Bytes, ...) - Data: 00 00 00 00  returns 0x04 (0000ms, 2421ms total)
T15F4 5528:302 JLINK_WriteMem(0xE0001048, 0x0004 Bytes, ...) - Data: 00 00 00 00  returns 0x04 (0000ms, 2421ms total)
T15F4 5528:302 JLINK_WriteMem(0xE0001050, 0x0004 Bytes, ...) - Data: 00 00 00 00  returns 0x04 (0000ms, 2421ms total)
T15F4 5528:302 JLINK_WriteMem(0xE0001054, 0x0004 Bytes, ...) - Data: 00 00 00 00  returns 0x04 (0000ms, 2421ms total)
T15F4 5528:302 JLINK_WriteMem(0xE0001058, 0x0004 Bytes, ...) - Data: 00 00 00 00  returns 0x04 (0000ms, 2421ms total)
T15F4 5528:302 JLINK_GetBPInfo(BPHandle = 2)  returns 0x00 (0000ms, 2421ms total)
T15F4 5528:302 JLINK_ClrBPEx(BPHandle = 0x00000002)  returns 0x00 (0000ms, 2421ms total)
T11B0 5528:307 JLINK_ReadReg(R15 (PC))  returns 0x00400CE8 (0000ms, 2421ms total)
T11B0 5528:307 JLINK_ReadReg(R13 (SP))  returns 0x200034C8 (0000ms, 2421ms total)
T11B0 5528:307 JLINK_ReadMemHW(0x00400CE8, 0x0004 Bytes, ...) -- CPU_ReadMem(4 bytes @ 0x00400CE8) - Data: 2D E9 F0 4F  returns 0x00 (0001ms, 2422ms total)
T15F4 5528:515 JLINK_IsHalted()  returns TRUE (0000ms, 2422ms total)
T15F4 5528:715 JLINK_IsHalted()  returns TRUE (0000ms, 2422ms total)
T15F4 5528:921 JLINK_IsHalted()  returns TRUE (0001ms, 2423ms total)
T1250 5529:059 JLINK_ReadMem (0x40000000, 0x0230 Bytes, ...) -- CPU_ReadMem(560 bytes @ 0x40000000) - Data: 00 00 00 00 00 00 00 00 00 00 00 00 00 00 00 00 ...  returns 0x00 (0005ms, 2427ms total)
T1250 5529:070 JLINK_ReadMem (0x40000000, 0x0230 Bytes, ...) -- CPU_ReadMem(560 bytes @ 0x40000000) - Data: 00 00 00 00 00 00 00 00 00 00 00 00 00 00 00 00 ...  returns 0x00 (0004ms, 2431ms total)
T1250 5529:114 JLINK_ReadMem (0x40000230, 0x0090 Bytes, ...) -- CPU_ReadMem(144 bytes @ 0x40000230) - Data: 00 00 00 00 00 00 00 00 00 00 00 00 00 00 00 00 ...  returns 0x00 (0003ms, 2434ms total)
T15F4 5529:122 JLINK_IsHalted()  returns TRUE (0000ms, 2434ms total)
T15F4 5529:322 JLINK_IsHalted()  returns TRUE (0000ms, 2434ms total)
T15F4 5529:522 JLINK_IsHalted()  returns TRUE (0000ms, 2434ms total)
T15F4 5529:722 JLINK_IsHalted()  returns TRUE (0000ms, 2434ms total)
T15F4 5529:922 JLINK_IsHalted()  returns TRUE (0000ms, 2434ms total)
T15F4 5530:122 JLINK_IsHalted()  returns TRUE (0002ms, 2436ms total)
T15F4 5530:324 JLINK_IsHalted()  returns TRUE (0000ms, 2434ms total)
T15F4 5530:524 JLINK_IsHalted()  returns TRUE (0000ms, 2434ms total)
T15F4 5530:724 JLINK_IsHalted()  returns TRUE (0000ms, 2434ms total)
T15F4 5530:924 JLINK_IsHalted()  returns TRUE (0000ms, 2434ms total)
T15F4 5531:124 JLINK_IsHalted()  returns TRUE (0000ms, 2434ms total)
T15F4 5531:324 JLINK_IsHalted()  returns TRUE (0001ms, 2435ms total)
T15F4 5531:525 JLINK_IsHalted()  returns TRUE (0000ms, 2434ms total)
T15F4 5531:725 JLINK_IsHalted()  returns TRUE (0000ms, 2434ms total)
T15F4 5531:925 JLINK_IsHalted()  returns TRUE (0001ms, 2435ms total)
T15F4 5532:126 JLINK_IsHalted()  returns TRUE (0000ms, 2434ms total)
T15F4 5532:326 JLINK_IsHalted()  returns TRUE (0000ms, 2434ms total)
T11B0 5532:387 JLINK_ReadReg(R15 (PC))  returns 0x00400CE8 (0000ms, 2434ms total)
T11B0 5532:387 JLINK_Go() -- CPU_WriteMem(4 bytes @ 0xE0001000) -- CPU_ReadMem(4 bytes @ 0xE0001000) -- CPU_WriteMem(4 bytes @ 0xE0001020) -- CPU_WriteMem(4 bytes @ 0xE0001030) -- CPU_WriteMem(4 bytes @ 0xE0001040) -- CPU_WriteMem(4 bytes @ 0xE0001050) -- CPU_WriteMem(4 bytes @ 0xE0001024) -- CPU_WriteMem(4 bytes @ 0xE0001034) -- CPU_WriteMem(4 bytes @ 0xE0001044) -- CPU_WriteMem(4 bytes @ 0xE0001054) -- CPU_WriteMem(4 bytes @ 0xE0001028) -- CPU_WriteMem(4 bytes @ 0xE0001038)
 -- CPU_WriteMem(4 bytes @ 0xE0001048) -- CPU_WriteMem(4 bytes @ 0xE0001058) -- CPU_WriteMem(4 bytes @ 0xE000200C) (0007ms, 2441ms total)
T15F4 5532:395 JLINK_IsHalted()  returns FALSE (0001ms, 2442ms total)
T15F4 5532:465 JLINK_IsHalted()  returns TRUE (0004ms, 2445ms total)
T15F4 5532:469 JLINK_GetMOEs(...) -- CPU_ReadMem(4 bytes @ 0xE000ED30) -- CPU_WriteMem(4 bytes @ 0xE000ED30)  returns 0x01 (0002ms, 2443ms total)
T15F4 5532:471 JLINK_ReadReg(R15 (PC))  returns 0x00400B4C (0000ms, 2443ms total)
T11B0 5532:475 JLINK_ReadReg(R15 (PC))  returns 0x00400B4C (0000ms, 2443ms total)
T11B0 5532:475 JLINK_ReadReg(R13 (SP))  returns 0x20003480 (0000ms, 2443ms total)
T11B0 5532:475 JLINK_ReadMemHW(0x00400B4C, 0x0004 Bytes, ...) -- CPU_ReadMem(4 bytes @ 0x00400B4C) - Data: 7B 68 03 F0  returns 0x00 (0001ms, 2444ms total)
T11B0 5532:477 JLINK_ReadReg(R0)  returns 0x400E1000 (0000ms, 2444ms total)
T11B0 5532:477 JLINK_ReadReg(R1)  returns 0x00000008 (0000ms, 2444ms total)
T11B0 5532:477 JLINK_ReadReg(R2)  returns 0x00000009 (0000ms, 2444ms total)
T11B0 5532:477 JLINK_ReadReg(R3)  returns 0x00400B41 (0000ms, 2444ms total)
T11B0 5532:477 JLINK_ReadReg(R4)  returns 0x400E1000 (0000ms, 2444ms total)
T11B0 5532:477 JLINK_ReadReg(R5)  returns 0x400E0E00 (0000ms, 2444ms total)
T11B0 5532:477 JLINK_ReadReg(R6)  returns 0x0040058D (0000ms, 2444ms total)
T11B0 5532:477 JLINK_ReadReg(R7)  returns 0x20003480 (0000ms, 2444ms total)
T11B0 5532:477 JLINK_ReadReg(R8)  returns 0x20000001 (0000ms, 2444ms total)
T11B0 5532:477 JLINK_ReadReg(R9)  returns 0x00068A1C (0000ms, 2444ms total)
T11B0 5532:477 JLINK_ReadReg(R10)  returns 0x400E1200 (0000ms, 2444ms total)
T11B0 5532:477 JLINK_ReadReg(R11)  returns 0x3EC2DEFD (0000ms, 2444ms total)
T11B0 5532:477 JLINK_ReadReg(R12)  returns 0x9E040460 (0000ms, 2444ms total)
T11B0 5532:477 JLINK_ReadReg(R13 (SP))  returns 0x20003480 (0000ms, 2444ms total)
T11B0 5532:477 JLINK_ReadReg(R14)  returns 0x00400D73 (0000ms, 2444ms total)
T11B0 5532:477 JLINK_ReadReg(R15 (PC))  returns 0x00400B4C (0000ms, 2444ms total)
T11B0 5532:478 JLINK_ReadReg(XPSR)  returns 0x01000000 (0000ms, 2445ms total)
T11B0 5532:478 JLINK_ReadReg(MSP)  returns 0x20003480 (0000ms, 2445ms total)
T11B0 5532:478 JLINK_ReadReg(PSP)  returns 0x4D967C34 (0000ms, 2445ms total)
T11B0 5532:478 JLINK_ReadReg(PRIMASK)  returns 0x00000000 (0000ms, 2445ms total)
T11B0 5532:478 JLINK_ReadReg(BASEPRI)  returns 0x00000000 (0000ms, 2445ms total)
T11B0 5532:478 JLINK_ReadReg(FAULTMASK)  returns 0x00000000 (0000ms, 2445ms total)
T11B0 5532:478 JLINK_ReadReg(CONTROL)  returns 0x00000000 (0000ms, 2445ms total)
T11B0 5532:610 JLINK_ReadMem (0x2000348C, 0x0004 Bytes, ...) -- CPU_ReadMem(64 bytes @ 0x20003480) -- Updating C cache (64 bytes @ 0x20003480) -- Read from C cache (4 bytes @ 0x2000348C) - Data: 00 10 0E 40  returns 0x00 (0001ms, 2446ms total)
T11B0 5532:612 JLINK_ReadMem (0x20003488, 0x0004 Bytes, ...) -- Read from C cache (4 bytes @ 0x20003488) - Data: 08 00 00 00  returns 0x00 (0000ms, 2446ms total)
T11B0 5532:612 JLINK_ReadMem (0x20003484, 0x0004 Bytes, ...) -- Read from C cache (4 bytes @ 0x20003484) - Data: 09 00 00 00  returns 0x00 (0000ms, 2446ms total)
T11B0 5532:613 JLINK_ReadMem (0x2000348C, 0x0004 Bytes, ...) -- Read from C cache (4 bytes @ 0x2000348C) - Data: 00 10 0E 40  returns 0x00 (0000ms, 2446ms total)
T11B0 5532:613 JLINK_ReadMem (0x20003488, 0x0004 Bytes, ...) -- Read from C cache (4 bytes @ 0x20003488) - Data: 08 00 00 00  returns 0x00 (0000ms, 2446ms total)
T11B0 5532:614 JLINK_ReadMem (0x20003484, 0x0004 Bytes, ...) -- Read from C cache (4 bytes @ 0x20003484) - Data: 09 00 00 00  returns 0x00 (0000ms, 2446ms total)
T11B0 5532:645 JLINK_ReadMemHW(0x00400D72, 0x0004 Bytes, ...) -- CPU_ReadMem(4 bytes @ 0x00400D72) - Data: 85 4B DB 6B  returns 0x00 (0002ms, 2448ms total)
T11B0 5532:647 JLINK_ReadMem (0x20003494, 0x0004 Bytes, ...) -- Read from C cache (4 bytes @ 0x20003494) - Data: 98 34 00 20  returns 0x00 (0000ms, 2448ms total)
T11B0 5532:658 JLINK_ReadMem (0x2000348C, 0x0004 Bytes, ...) -- Read from C cache (4 bytes @ 0x2000348C) - Data: 00 10 0E 40  returns 0x00 (0000ms, 2448ms total)
T11B0 5532:659 JLINK_ReadMem (0x20003488, 0x0004 Bytes, ...) -- Read from C cache (4 bytes @ 0x20003488) - Data: 08 00 00 00  returns 0x00 (0000ms, 2448ms total)
T11B0 5532:659 JLINK_ReadMem (0x20003484, 0x0004 Bytes, ...) -- Read from C cache (4 bytes @ 0x20003484) - Data: 09 00 00 00  returns 0x00 (0001ms, 2449ms total)
T15F4 5532:671 JLINK_IsHalted()  returns TRUE (0000ms, 2449ms total)
T1250 5532:813 JLINK_ReadMem (0x40000000, 0x02C0 Bytes, ...) -- CPU_ReadMem(704 bytes @ 0x40000000) - Data: 00 00 00 00 00 00 00 00 00 00 00 00 00 00 00 00 ...  returns 0x00 (0003ms, 2452ms total)
T1250 5532:819 JLINK_ReadMem (0x40000000, 0x02C0 Bytes, ...) -- CPU_ReadMem(704 bytes @ 0x40000000) - Data: 00 00 00 00 00 00 00 00 00 00 00 00 00 00 00 00 ...  returns 0x00 (0004ms, 2456ms total)
T15F4 5532:872 JLINK_IsHalted()  returns TRUE (0000ms, 2456ms total)
T15F4 5533:072 JLINK_IsHalted()  returns TRUE (0000ms, 2456ms total)
T15F4 5533:272 JLINK_IsHalted()  returns TRUE (0000ms, 2456ms total)
T15F4 5533:472 JLINK_IsHalted()  returns TRUE (0000ms, 2456ms total)
T15F4 5533:672 JLINK_IsHalted()  returns TRUE (0000ms, 2456ms total)
T15F4 5533:872 JLINK_IsHalted()  returns TRUE (0000ms, 2456ms total)
T15F4 5534:072 JLINK_IsHalted()  returns TRUE (0000ms, 2456ms total)
T15F4 5534:272 JLINK_IsHalted()  returns TRUE (0000ms, 2456ms total)
T15F4 5534:472 JLINK_IsHalted()  returns TRUE (0000ms, 2456ms total)
T15F4 5534:672 JLINK_IsHalted()  returns TRUE (0000ms, 2456ms total)
T15F4 5534:872 JLINK_IsHalted()  returns TRUE (0001ms, 2457ms total)
T15F4 5535:073 JLINK_IsHalted()  returns TRUE (0000ms, 2456ms total)
T15F4 5535:273 JLINK_IsHalted()  returns TRUE (0000ms, 2456ms total)
T15F4 5535:473 JLINK_IsHalted()  returns TRUE (0001ms, 2457ms total)
T15F4 5535:674 JLINK_IsHalted()  returns TRUE (0000ms, 2456ms total)
T15F4 5535:874 JLINK_IsHalted()  returns TRUE (0000ms, 2456ms total)
T15F4 5536:074 JLINK_IsHalted()  returns TRUE (0001ms, 2457ms total)
T15F4 5536:275 JLINK_IsHalted()  returns TRUE (0000ms, 2456ms total)
T15F4 5536:475 JLINK_IsHalted()  returns TRUE (0000ms, 2456ms total)
T15F4 5536:675 JLINK_IsHalted()  returns TRUE (0001ms, 2457ms total)
T15F4 5536:876 JLINK_IsHalted()  returns TRUE (0000ms, 2456ms total)
T15F4 5537:076 JLINK_IsHalted()  returns TRUE (0000ms, 2456ms total)
T15F4 5537:276 JLINK_IsHalted()  returns TRUE (0001ms, 2457ms total)
T15F4 5537:477 JLINK_IsHalted()  returns TRUE (0000ms, 2456ms total)
T15F4 5537:677 JLINK_IsHalted()  returns TRUE (0000ms, 2456ms total)
T15F4 5537:877 JLINK_IsHalted()  returns TRUE (0001ms, 2457ms total)
T15F4 5538:078 JLINK_IsHalted()  returns TRUE (0000ms, 2456ms total)
T15F4 5538:278 JLINK_IsHalted()  returns TRUE (0000ms, 2456ms total)
T15F4 5538:478 JLINK_IsHalted()  returns TRUE (0001ms, 2457ms total)
T11B0 5538:498 JLINK_ReadReg(R15 (PC))  returns 0x00400B4C (0000ms, 2456ms total)
T11B0 5538:499 JLINK_GetBPInfo(BPHandle = 1)  returns 0x00 (0000ms, 2456ms total)
T11B0 5538:499 JLINK_ClrBPEx(BPHandle = 0x00000001)  returns 0x00 (0000ms, 2456ms total)
T11B0 5538:499 JLINK_Step() -- Read from flash cache (2 bytes @ 0x00400B4C) -- CPU_ReadMem(4 bytes @ 0xE0001004) -- Read from C cache (4 bytes @ 0x20003484) -- Simulated  returns 0x00 (0001ms, 2457ms total)
T11B0 5538:500 JLINK_SetBPEx(Addr = 0x00400B4C, Type = 0xFFFFFFF2)  returns 0x00000003 (0000ms, 2457ms total)
T11B0 5538:500 JLINK_GetBPInfo(BPHandle = 3)  returns 0x00 (0000ms, 2457ms total)
T15F4 5538:500 JLINK_IsHalted()  returns TRUE (0000ms, 2457ms total)
T15F4 5538:500 JLINK_GetMOEs(...)  returns 0x01 (0000ms, 2457ms total)
T15F4 5538:500 JLINK_ReadReg(R15 (PC))  returns 0x00400B4E (0000ms, 2457ms total)
T11B0 5538:510 JLINK_ReadReg(R15 (PC))  returns 0x00400B4E (0000ms, 2457ms total)
T11B0 5538:510 JLINK_ReadReg(R13 (SP))  returns 0x20003480 (0000ms, 2457ms total)
T11B0 5538:510 JLINK_ReadMemHW(0x00400B4E, 0x0004 Bytes, ...) -- CPU_ReadMem(4 bytes @ 0x00400B4E) - Data: 03 F0 01 03  returns 0x00 (0001ms, 2458ms total)
T11B0 5538:512 JLINK_ReadReg(R0)  returns 0x400E1000 (0000ms, 2459ms total)
T11B0 5538:512 JLINK_ReadReg(R1)  returns 0x00000008 (0000ms, 2459ms total)
T11B0 5538:512 JLINK_ReadReg(R2)  returns 0x00000009 (0000ms, 2459ms total)
T11B0 5538:512 JLINK_ReadReg(R3)  returns 0x00000009 (0000ms, 2459ms total)
T11B0 5538:512 JLINK_ReadReg(R4)  returns 0x400E1000 (0000ms, 2459ms total)
T11B0 5538:512 JLINK_ReadReg(R5)  returns 0x400E0E00 (0000ms, 2459ms total)
T11B0 5538:512 JLINK_ReadReg(R6)  returns 0x0040058D (0000ms, 2459ms total)
T11B0 5538:512 JLINK_ReadReg(R7)  returns 0x20003480 (0000ms, 2459ms total)
T11B0 5538:512 JLINK_ReadReg(R8)  returns 0x20000001 (0000ms, 2459ms total)
T11B0 5538:512 JLINK_ReadReg(R9)  returns 0x00068A1C (0000ms, 2459ms total)
T11B0 5538:512 JLINK_ReadReg(R10)  returns 0x400E1200 (0000ms, 2459ms total)
T11B0 5538:512 JLINK_ReadReg(R11)  returns 0x3EC2DEFD (0000ms, 2459ms total)
T11B0 5538:512 JLINK_ReadReg(R12)  returns 0x9E040460 (0001ms, 2460ms total)
T11B0 5538:513 JLINK_ReadReg(R13 (SP))  returns 0x20003480 (0000ms, 2460ms total)
T11B0 5538:513 JLINK_ReadReg(R14)  returns 0x00400D73 (0000ms, 2460ms total)
T11B0 5538:513 JLINK_ReadReg(R15 (PC))  returns 0x00400B4E (0000ms, 2460ms total)
T11B0 5538:513 JLINK_ReadReg(XPSR)  returns 0x01000000 (0000ms, 2460ms total)
T11B0 5538:513 JLINK_ReadReg(MSP)  returns 0x20003480 (0000ms, 2460ms total)
T11B0 5538:513 JLINK_ReadReg(PSP)  returns 0x4D967C34 (0000ms, 2460ms total)
T11B0 5538:513 JLINK_ReadReg(PRIMASK)  returns 0x00000000 (0000ms, 2460ms total)
T11B0 5538:513 JLINK_ReadReg(BASEPRI)  returns 0x00000000 (0000ms, 2460ms total)
T11B0 5538:513 JLINK_ReadReg(FAULTMASK)  returns 0x00000000 (0000ms, 2460ms total)
T11B0 5538:513 JLINK_ReadReg(CONTROL)  returns 0x00000000 (0000ms, 2460ms total)
T11B0 5538:513 JLINK_ReadReg(R15 (PC))  returns 0x00400B4E (0000ms, 2460ms total)
T11B0 5538:514 JLINK_Step() -- Read from flash cache (2 bytes @ 0x00400B4E) -- Read from flash cache (2 bytes @ 0x00400B50) -- Simulated  returns 0x00 (0000ms, 2460ms total)
T15F4 5538:514 JLINK_IsHalted()  returns TRUE (0000ms, 2460ms total)
T15F4 5538:514 JLINK_GetMOEs(...)  returns 0x01 (0000ms, 2460ms total)
T15F4 5538:514 JLINK_ReadReg(R15 (PC))  returns 0x00400B52 (0000ms, 2460ms total)
T11B0 5538:524 JLINK_ReadReg(R15 (PC))  returns 0x00400B52 (0000ms, 2460ms total)
T11B0 5538:524 JLINK_ReadReg(R13 (SP))  returns 0x20003480 (0000ms, 2460ms total)
T11B0 5538:524 JLINK_ReadMemHW(0x00400B52, 0x0004 Bytes, ...) -- CPU_ReadMem(4 bytes @ 0x00400B52) - Data: 00 2B 02 D0  returns 0x00 (0002ms, 2462ms total)
T11B0 5538:526 JLINK_ReadReg(R0)  returns 0x400E1000 (0000ms, 2462ms total)
T11B0 5538:526 JLINK_ReadReg(R1)  returns 0x00000008 (0000ms, 2462ms total)
T11B0 5538:526 JLINK_ReadReg(R2)  returns 0x00000009 (0000ms, 2462ms total)
T11B0 5538:526 JLINK_ReadReg(R3)  returns 0x00000001 (0000ms, 2462ms total)
T11B0 5538:526 JLINK_ReadReg(R4)  returns 0x400E1000 (0000ms, 2462ms total)
T11B0 5538:526 JLINK_ReadReg(R5)  returns 0x400E0E00 (0000ms, 2462ms total)
T11B0 5538:526 JLINK_ReadReg(R6)  returns 0x0040058D (0000ms, 2462ms total)
T11B0 5538:526 JLINK_ReadReg(R7)  returns 0x20003480 (0000ms, 2462ms total)
T11B0 5538:526 JLINK_ReadReg(R8)  returns 0x20000001 (0000ms, 2462ms total)
T11B0 5538:526 JLINK_ReadReg(R9)  returns 0x00068A1C (0000ms, 2462ms total)
T11B0 5538:526 JLINK_ReadReg(R10)  returns 0x400E1200 (0001ms, 2463ms total)
T11B0 5538:527 JLINK_ReadReg(R11)  returns 0x3EC2DEFD (0000ms, 2463ms total)
T11B0 5538:527 JLINK_ReadReg(R12)  returns 0x9E040460 (0000ms, 2463ms total)
T11B0 5538:527 JLINK_ReadReg(R13 (SP))  returns 0x20003480 (0000ms, 2463ms total)
T11B0 5538:527 JLINK_ReadReg(R14)  returns 0x00400D73 (0000ms, 2463ms total)
T11B0 5538:527 JLINK_ReadReg(R15 (PC))  returns 0x00400B52 (0000ms, 2463ms total)
T11B0 5538:527 JLINK_ReadReg(XPSR)  returns 0x01000000 (0000ms, 2463ms total)
T11B0 5538:527 JLINK_ReadReg(MSP)  returns 0x20003480 (0000ms, 2463ms total)
T11B0 5538:527 JLINK_ReadReg(PSP)  returns 0x4D967C34 (0000ms, 2463ms total)
T11B0 5538:527 JLINK_ReadReg(PRIMASK)  returns 0x00000000 (0000ms, 2463ms total)
T11B0 5538:527 JLINK_ReadReg(BASEPRI)  returns 0x00000000 (0000ms, 2463ms total)
T11B0 5538:527 JLINK_ReadReg(FAULTMASK)  returns 0x00000000 (0000ms, 2463ms total)
T11B0 5538:527 JLINK_ReadReg(CONTROL)  returns 0x00000000 (0000ms, 2463ms total)
T11B0 5538:527 JLINK_ReadReg(R15 (PC))  returns 0x00400B52 (0000ms, 2463ms total)
T11B0 5538:527 JLINK_Step() -- Read from flash cache (2 bytes @ 0x00400B52) -- Simulated  returns 0x00 (0000ms, 2463ms total)
T15F4 5538:528 JLINK_IsHalted()  returns TRUE (0000ms, 2463ms total)
T15F4 5538:528 JLINK_GetMOEs(...)  returns 0x01 (0000ms, 2463ms total)
T15F4 5538:528 JLINK_ReadReg(R15 (PC))  returns 0x00400B54 (0000ms, 2463ms total)
T11B0 5538:537 JLINK_ReadReg(R15 (PC))  returns 0x00400B54 (0000ms, 2463ms total)
T11B0 5538:537 JLINK_ReadReg(R13 (SP))  returns 0x20003480 (0000ms, 2463ms total)
T11B0 5538:537 JLINK_ReadMemHW(0x00400B54, 0x0004 Bytes, ...) -- CPU_ReadMem(4 bytes @ 0x00400B54) - Data: 02 D0 FB 68  returns 0x00 (0001ms, 2464ms total)
T11B0 5538:539 JLINK_ReadReg(R0)  returns 0x400E1000 (0000ms, 2464ms total)
T11B0 5538:539 JLINK_ReadReg(R1)  returns 0x00000008 (0000ms, 2464ms total)
T11B0 5538:539 JLINK_ReadReg(R2)  returns 0x00000009 (0000ms, 2464ms total)
T11B0 5538:539 JLINK_ReadReg(R3)  returns 0x00000001 (0000ms, 2464ms total)
T11B0 5538:539 JLINK_ReadReg(R4)  returns 0x400E1000 (0000ms, 2464ms total)
T11B0 5538:539 JLINK_ReadReg(R5)  returns 0x400E0E00 (0000ms, 2464ms total)
T11B0 5538:539 JLINK_ReadReg(R6)  returns 0x0040058D (0000ms, 2464ms total)
T11B0 5538:539 JLINK_ReadReg(R7)  returns 0x20003480 (0000ms, 2464ms total)
T11B0 5538:539 JLINK_ReadReg(R8)  returns 0x20000001 (0000ms, 2464ms total)
T11B0 5538:539 JLINK_ReadReg(R9)  returns 0x00068A1C (0000ms, 2464ms total)
T11B0 5538:539 JLINK_ReadReg(R10)  returns 0x400E1200 (0000ms, 2464ms total)
T11B0 5538:539 JLINK_ReadReg(R11)  returns 0x3EC2DEFD (0000ms, 2464ms total)
T11B0 5538:539 JLINK_ReadReg(R12)  returns 0x9E040460 (0000ms, 2464ms total)
T11B0 5538:539 JLINK_ReadReg(R13 (SP))  returns 0x20003480 (0000ms, 2464ms total)
T11B0 5538:539 JLINK_ReadReg(R14)  returns 0x00400D73 (0000ms, 2464ms total)
T11B0 5538:539 JLINK_ReadReg(R15 (PC))  returns 0x00400B54 (0000ms, 2464ms total)
T11B0 5538:539 JLINK_ReadReg(XPSR)  returns 0x21000000 (0000ms, 2464ms total)
T11B0 5538:539 JLINK_ReadReg(MSP)  returns 0x20003480 (0000ms, 2464ms total)
T11B0 5538:539 JLINK_ReadReg(PSP)  returns 0x4D967C34 (0000ms, 2464ms total)
T11B0 5538:539 JLINK_ReadReg(PRIMASK)  returns 0x00000000 (0000ms, 2464ms total)
T11B0 5538:539 JLINK_ReadReg(BASEPRI)  returns 0x00000000 (0000ms, 2464ms total)
T11B0 5538:539 JLINK_ReadReg(FAULTMASK)  returns 0x00000000 (0000ms, 2464ms total)
T11B0 5538:539 JLINK_ReadReg(CONTROL)  returns 0x00000000 (0000ms, 2464ms total)
T11B0 5538:540 JLINK_ReadReg(R15 (PC))  returns 0x00400B54 (0000ms, 2464ms total)
T11B0 5538:540 JLINK_Step() -- Read from flash cache (2 bytes @ 0x00400B54) -- Simulated  returns 0x00 (0000ms, 2464ms total)
T15F4 5538:540 JLINK_IsHalted()  returns TRUE (0000ms, 2464ms total)
T15F4 5538:540 JLINK_GetMOEs(...)  returns 0x01 (0000ms, 2464ms total)
T15F4 5538:540 JLINK_ReadReg(R15 (PC))  returns 0x00400B56 (0000ms, 2464ms total)
T11B0 5538:550 JLINK_ReadReg(R15 (PC))  returns 0x00400B56 (0000ms, 2464ms total)
T11B0 5538:550 JLINK_ReadReg(R13 (SP))  returns 0x20003480 (0000ms, 2464ms total)
T11B0 5538:550 JLINK_ReadMemHW(0x00400B56, 0x0004 Bytes, ...) -- CPU_ReadMem(4 bytes @ 0x00400B56) - Data: FB 68 BA 68  returns 0x00 (0001ms, 2465ms total)
T11B0 5538:552 JLINK_ReadReg(R0)  returns 0x400E1000 (0000ms, 2465ms total)
T11B0 5538:552 JLINK_ReadReg(R1)  returns 0x00000008 (0000ms, 2465ms total)
T11B0 5538:552 JLINK_ReadReg(R2)  returns 0x00000009 (0000ms, 2465ms total)
T11B0 5538:552 JLINK_ReadReg(R3)  returns 0x00000001 (0000ms, 2465ms total)
T11B0 5538:552 JLINK_ReadReg(R4)  returns 0x400E1000 (0000ms, 2465ms total)
T11B0 5538:552 JLINK_ReadReg(R5)  returns 0x400E0E00 (0000ms, 2465ms total)
T11B0 5538:552 JLINK_ReadReg(R6)  returns 0x0040058D (0000ms, 2465ms total)
T11B0 5538:552 JLINK_ReadReg(R7)  returns 0x20003480 (0000ms, 2465ms total)
T11B0 5538:552 JLINK_ReadReg(R8)  returns 0x20000001 (0000ms, 2465ms total)
T11B0 5538:552 JLINK_ReadReg(R9)  returns 0x00068A1C (0000ms, 2465ms total)
T11B0 5538:552 JLINK_ReadReg(R10)  returns 0x400E1200 (0000ms, 2465ms total)
T11B0 5538:552 JLINK_ReadReg(R11)  returns 0x3EC2DEFD (0000ms, 2465ms total)
T11B0 5538:552 JLINK_ReadReg(R12)  returns 0x9E040460 (0000ms, 2465ms total)
T11B0 5538:552 JLINK_ReadReg(R13 (SP))  returns 0x20003480 (0000ms, 2465ms total)
